
T32A0 000:002 SEGGER J-Link V6.30 Log File (0001ms, 0002ms total)
T32A0 000:002 DLL Compiled: Jan 30 2018 18:44:37 (0001ms, 0002ms total)
T32A0 000:002 Logging started @ 2024-12-24 15:52 (0001ms, 0002ms total)
T32A0 000:003 JLINK_SetWarnOutHandler(...) (0000ms, 0002ms total)
T32A0 000:003 JLINK_OpenEx(...)
Firmware: J-Link V9 compiled May  7 2021 16:26:12
Hardware: V9.40
S/N: 69403759
Feature(s): RDI, GDB, FlashDL, FlashBP, JFlash
TELNET listener socket opened on port 19021WEBSRV 
Starting webserver (0016ms, 0018ms total)
T32A0 000:003 WEBSRV Webserver running on local port 19080 (0016ms, 0018ms total)
T32A0 000:003   returns O.K. (0016ms, 0018ms total)
T32A0 000:019 JLINK_GetEmuCaps()  returns 0xB9FF7BBF (0000ms, 0018ms total)
T32A0 000:019 JLINK_TIF_GetAvailable(...) (0000ms, 0018ms total)
T32A0 000:019 JLINK_SetErrorOutHandler(...) (0000ms, 0018ms total)
T32A0 000:019 JLINK_ExecCommand("ProjectFile = "C:\Users\lenovo\Desktop\ÖÐÑÌ\1.Ò£¿ØÆ÷ (´«ÊäÍê³É°æ)\1.Ò£¿ØÆ÷\USER\JLinkSettings.ini"", ...).   returns 0x00 (0076ms, 0094ms total)
T32A0 000:099 JLINK_ExecCommand("Device = STM32F103RC", ...). Device "STM32F103RC" selected.  returns 0x00 (0004ms, 0098ms total)
T32A0 000:103 JLINK_ExecCommand("DisableConnectionTimeout", ...).   returns 0x01 (0000ms, 0098ms total)
T32A0 000:103 JLINK_GetHardwareVersion()  returns 0x16F30 (0000ms, 0098ms total)
T32A0 000:103 JLINK_GetDLLVersion()  returns 63000 (0000ms, 0098ms total)
T32A0 000:103 JLINK_GetFirmwareString(...) (0000ms, 0098ms total)
T32A0 000:112 JLINK_GetDLLVersion()  returns 63000 (0000ms, 0098ms total)
T32A0 000:112 JLINK_GetCompileDateTime() (0000ms, 0098ms total)
T32A0 000:115 JLINK_GetFirmwareString(...) (0000ms, 0098ms total)
T32A0 000:117 JLINK_GetHardwareVersion()  returns 0x16F30 (0000ms, 0098ms total)
T32A0 000:125 JLINK_TIF_Select(JLINKARM_TIF_SWD)  returns 0x00 (0000ms, 0098ms total)
T32A0 000:125 JLINK_SetSpeed(5000) (0000ms, 0098ms total)
T32A0 000:125 JLINK_GetId() >0x10B TIF>Found SW-DP with ID 0x1BA01477 >0x0D TIF> >0x28 TIF> >0x0D TIF> >0x28 TIF> >0x0D TIF> >0x28 TIF> >0x0D TIF> >0x28 TIF> >0x0D TIF> >0x21 TIF> >0x0D TIF> >0x28 TIF> >0x0D TIF> >0x28 TIF> >0x0D TIF> >0x28 TIF> >0x0D TIF> >0x21 TIF> >0x0D TIF> >0x21 TIF> >0x0D TIF> >0x28 TIF> >0x0D TIF> >0x21 TIF> >0x0D TIF> >0x21 TIF> >0x0D TIF> >0x28 TIF> >0x0D TIF> >0x21 TIF> >0x0D TIF> >0x21 TIF> >0x0D TIF> >0x28 TIF> >0x0D TIF> >0x21 TIF> >0x0D TIF> >0x21 TIF> >0x0D TIF> >0x28 TIF>
 >0x0D TIF> >0x21 TIF> >0x0D TIF> >0x21 TIF> >0x0D TIF> >0x28 TIF> >0x0D TIF> >0x21 TIF> >0x0D TIF> >0x21 TIF> >0x0D TIF> >0x28 TIF> >0x0D TIF> >0x21 TIF> >0x0D TIF> >0x21 TIF> >0x10B TIF>Found SW-DP with ID 0x1BA01477 >0x0D TIF> >0x28 TIF> >0x0D TIF> >0x28 TIF> >0x0D TIF> >0x28 TIF> >0x0D TIF> >0x28 TIF> >0x0D TIF> >0x21 TIF> >0x0D TIF> >0x28 TIF>Scanning AP map to find all available APs >0x0D TIF> >0x28 TIF> >0x0D TIF> >0x21 TIF> >0x0D TIF> >0x21 TIF> >0x0D TIF> >0x28 TIF> >0x0D TIF> >0x21 TIF>
 >0x0D TIF> >0x21 TIF>AP[1]: Stopped AP scan as end of AP map has been reachedAP[0]: AHB-AP (IDR: 0x14770011)Iterating through AP map to find AHB-AP to use >0x42 TIF> >0x28 TIF> >0x0D TIF> >0x28 TIF> >0x0D TIF> >0x21 TIF> >0x0D TIF> >0x21 TIF> >0x42 TIF> >0x28 TIF> >0x0D TIF> >0x28 TIF> >0x0D TIF> >0x28 TIF> >0x0D TIF> >0x21 TIF> >0x0D TIF> >0x21 TIF>AP[0]: Core foundAP[0]: AHB-AP ROM base: 0xE00FF000 >0x0D TIF> >0x28 TIF> >0x0D TIF> >0x28 TIF> >0x0D TIF> >0x28 TIF> >0x0D TIF> >0x21 TIF> >0x0D TIF>
 >0x21 TIF>CPUID register: 0x411FC231. Implementer code: 0x41 (ARM)Found Cortex-M3 r1p1, Little endian. -- CPU_ReadMem(4 bytes @ 0xE000EDF0) -- CPU_WriteMem(4 bytes @ 0xE000EDF0) -- CPU_ReadMem(4 bytes @ 0xE0002000)FPUnit: 6 code (BP) slots and 2 literal slots -- CPU_ReadMem(4 bytes @ 0xE000EDFC) -- CPU_WriteMem(4 bytes @ 0xE000EDFC) -- CPU_ReadMem(4 bytes @ 0xE0001000) -- CPU_WriteMem(4 bytes @ 0xE0001000) -- CPU_ReadMem(4 bytes @ 0xE000ED88) -- CPU_WriteMem(4 bytes @ 0xE000ED88)
 -- CPU_ReadMem(4 bytes @ 0xE000ED88) -- CPU_WriteMem(4 bytes @ 0xE000ED88)CoreSight components:ROMTbl[0] @ E00FF000 -- CPU_ReadMem(16 bytes @ 0xE00FF000) -- CPU_ReadMem(16 bytes @ 0xE000EFF0) -- CPU_ReadMem(16 bytes @ 0xE000EFE0)ROMTbl[0][0]: E000E000, CID: B105E00D, PID: 001BB000 SCS -- CPU_ReadMem(16 bytes @ 0xE0001FF0) -- CPU_ReadMem(16 bytes @ 0xE0001FE0)ROMTbl[0][1]: E0001000, CID: B105E00D, PID: 001BB002 DWT -- CPU_ReadMem(16 bytes @ 0xE0002FF0) -- CPU_ReadMem(16 bytes @ 0xE0002FE0)
ROMTbl[0][2]: E0002000, CID: B105E00D, PID: 000BB003 FPB -- CPU_ReadMem(16 bytes @ 0xE0000FF0) -- CPU_ReadMem(16 bytes @ 0xE0000FE0)ROMTbl[0][3]: E0000000, CID: B105E00D, PID: 001BB001 ITM -- CPU_ReadMem(16 bytes @ 0xE00FF010) -- CPU_ReadMem(16 bytes @ 0xE0040FF0) -- CPU_ReadMem(16 bytes @ 0xE0040FE0)ROMTbl[0][4]: E0040000, CID: B105900D, PID: 001BB923 TPIU-Lite -- CPU_ReadMem(16 bytes @ 0xE0041FF0) -- CPU_ReadMem(16 bytes @ 0xE0041FE0)ROMTbl[0][5]: E0041000, CID: B105900D, PID: 101BB924 ETM-M3
 >0x0D TIF> >0x21 TIF>  returns 0x1BA01477 (0180ms, 0278ms total)
T32A0 000:305 JLINK_GetDLLVersion()  returns 63000 (0000ms, 0278ms total)
T32A0 000:305 JLINK_CORE_GetFound()  returns 0x30000FF (0000ms, 0278ms total)
T32A0 000:305 JLINK_GetDebugInfo(0x100 = JLINKARM_ROM_TABLE_ADDR_INDEX) -- Value=0xE00FF000  returns 0x00 (0000ms, 0278ms total)
T32A0 000:307 JLINK_GetDebugInfo(0x100 = JLINKARM_ROM_TABLE_ADDR_INDEX) -- Value=0xE00FF000  returns 0x00 (0000ms, 0278ms total)
T32A0 000:307 JLINK_GetDebugInfo(0x101 = JLINKARM_DEBUG_INFO_ETM_ADDR_INDEX) -- Value=0xE0041000  returns 0x00 (0000ms, 0278ms total)
T32A0 000:307 JLINK_ReadMemEx(0xE0041FD0, 0x0020 Bytes, ..., Flags = 0x02000004) -- CPU_ReadMem(32 bytes @ 0xE0041FD0) - Data: 04 00 00 00 00 00 00 00 00 00 00 00 00 00 00 00 ...  returns 0x20 (0001ms, 0279ms total)
T32A0 000:308 JLINK_GetDebugInfo(0x102 = JLINKARM_DEBUG_INFO_MTB_ADDR_INDEX) -- Value=0x00000000  returns 0x00 (0000ms, 0279ms total)
T32A0 000:308 JLINK_GetDebugInfo(0x103 = JLINKARM_DEBUG_INFO_TPIU_ADDR_INDEX) -- Value=0xE0040000  returns 0x00 (0000ms, 0279ms total)
T32A0 000:308 JLINK_GetDebugInfo(0x104 = JLINKARM_DEBUG_INFO_ITM_ADDR_INDEX) -- Value=0xE0000000  returns 0x00 (0000ms, 0279ms total)
T32A0 000:308 JLINK_GetDebugInfo(0x105 = JLINKARM_DEBUG_INFO_DWT_ADDR_INDEX) -- Value=0xE0001000  returns 0x00 (0000ms, 0279ms total)
T32A0 000:308 JLINK_GetDebugInfo(0x106 = JLINKARM_DEBUG_INFO_FPB_ADDR_INDEX) -- Value=0xE0002000  returns 0x00 (0000ms, 0279ms total)
T32A0 000:308 JLINK_GetDebugInfo(0x107 = JLINKARM_DEBUG_INFO_NVIC_ADDR_INDEX) -- Value=0xE000E000  returns 0x00 (0000ms, 0279ms total)
T32A0 000:308 JLINK_GetDebugInfo(0x10C = JLINKARM_DEBUG_INFO_DBG_ADDR_INDEX) -- Value=0xE000EDF0  returns 0x00 (0000ms, 0279ms total)
T32A0 000:308 JLINK_ReadMemU32(0xE000ED00, 0x0001 Items, ...) -- CPU_ReadMem(4 bytes @ 0xE000ED00) - Data: 31 C2 1F 41  returns 0x01 (0000ms, 0279ms total)
T32A0 000:308 JLINK_GetDebugInfo(0x10F = JLINKARM_DEBUG_INFO_HAS_CORTEX_M_SECURITY_EXT_INDEX) -- Value=0x00000000  returns 0x00 (0000ms, 0279ms total)
T32A0 000:308 JLINK_SetResetType(JLINKARM_CM3_RESET_TYPE_NORMAL)  returns JLINKARM_CM3_RESET_TYPE_NORMAL (0000ms, 0279ms total)
T32A0 000:308 JLINK_Reset() -- CPU is running -- CPU_WriteMem(4 bytes @ 0xE000EDF0) -- CPU is running -- CPU_WriteMem(4 bytes @ 0xE000EDFC)Reset: Halt core after reset via DEMCR.VC_CORERESET. >0x35 TIF>Reset: Reset device via AIRCR.SYSRESETREQ. -- CPU is running -- CPU_WriteMem(4 bytes @ 0xE000ED0C) >0x0D TIF> >0x28 TIF> -- CPU_ReadMem(4 bytes @ 0xE000EDF0) -- CPU_ReadMem(4 bytes @ 0xE000EDF0) -- CPU is running -- CPU_WriteMem(4 bytes @ 0xE000EDF0) -- CPU is running -- CPU_WriteMem(4 bytes @ 0xE000EDFC)
 -- CPU_ReadMem(4 bytes @ 0xE000EDF0) -- CPU_WriteMem(4 bytes @ 0xE0002000) -- CPU_ReadMem(4 bytes @ 0xE000EDFC) -- CPU_ReadMem(4 bytes @ 0xE0001000) (0075ms, 0354ms total)
T32A0 000:383 JLINK_Halt()  returns 0x00 (0000ms, 0354ms total)
T32A0 000:383 JLINK_ReadMemU32(0xE000EDF0, 0x0001 Items, ...) -- CPU_ReadMem(4 bytes @ 0xE000EDF0) - Data: 03 00 03 00  returns 0x01 (0001ms, 0355ms total)
T32A0 000:384 JLINK_WriteU32(0xE000EDF0, 0xA05F0003) -- CPU_WriteMem(4 bytes @ 0xE000EDF0)  returns 0x00 (0001ms, 0356ms total)
T32A0 000:385 JLINK_WriteU32(0xE000EDFC, 0x01000000) -- CPU_WriteMem(4 bytes @ 0xE000EDFC)  returns 0x00 (0001ms, 0357ms total)
T32A0 000:398 JLINK_GetHWStatus(...)  returns 0x00 (0000ms, 0357ms total)
T32A0 000:404 JLINK_GetNumBPUnits(Type = 0xFFFFFF00)  returns 0x06 (0000ms, 0357ms total)
T32A0 000:404 JLINK_GetNumBPUnits(Type = 0xF0)  returns 0x2000 (0000ms, 0357ms total)
T32A0 000:404 JLINK_GetNumWPUnits()  returns 0x04 (0000ms, 0357ms total)
T32A0 000:410 JLINK_GetSpeed()  returns 0xFA0 (0000ms, 0357ms total)
T32A0 000:414 JLINK_ReadMemU32(0xE000E004, 0x0001 Items, ...) -- CPU_ReadMem(4 bytes @ 0xE000E004) - Data: 01 00 00 00  returns 0x01 (0001ms, 0358ms total)
T32A0 000:415 JLINK_ReadMemU32(0xE000E004, 0x0001 Items, ...) -- CPU_ReadMem(4 bytes @ 0xE000E004) - Data: 01 00 00 00  returns 0x01 (0000ms, 0358ms total)
T32A0 000:415 JLINK_WriteMemEx(0xE0001000, 0x001C Bytes, ..., Flags = 0x02000004) - Data: 01 00 00 00 00 00 00 00 00 00 00 00 00 00 00 00 ... -- CPU_WriteMem(28 bytes @ 0xE0001000)  returns 0x1C (0000ms, 0358ms total)
T32A0 000:415 JLINK_Halt()  returns 0x00 (0000ms, 0358ms total)
T32A0 000:415 JLINK_IsHalted()  returns TRUE (0000ms, 0358ms total)
T32A0 000:420 JLINK_WriteMem(0x20000000, 0x0164 Bytes, ...) - Data: 00 BE 0A E0 0D 78 2D 06 68 40 08 24 40 00 00 D3 ... -- CPU_WriteMem(356 bytes @ 0x20000000)  returns 0x164 (0003ms, 0361ms total)
T32A0 000:423 JLINK_WriteReg(R0, 0x08000000)  returns 0x00 (0000ms, 0361ms total)
T32A0 000:423 JLINK_WriteReg(R1, 0x007A1200)  returns 0x00 (0000ms, 0361ms total)
T32A0 000:423 JLINK_WriteReg(R2, 0x00000001)  returns 0x00 (0000ms, 0361ms total)
T32A0 000:423 JLINK_WriteReg(R3, 0x00000000)  returns 0x00 (0000ms, 0361ms total)
T32A0 000:423 JLINK_WriteReg(R4, 0x00000000)  returns 0x00 (0000ms, 0361ms total)
T32A0 000:423 JLINK_WriteReg(R5, 0x00000000)  returns 0x00 (0000ms, 0361ms total)
T32A0 000:423 JLINK_WriteReg(R6, 0x00000000)  returns 0x00 (0000ms, 0361ms total)
T32A0 000:423 JLINK_WriteReg(R7, 0x00000000)  returns 0x00 (0000ms, 0361ms total)
T32A0 000:423 JLINK_WriteReg(R8, 0x00000000)  returns 0x00 (0000ms, 0361ms total)
T32A0 000:423 JLINK_WriteReg(R9, 0x20000160)  returns 0x00 (0000ms, 0361ms total)
T32A0 000:423 JLINK_WriteReg(R10, 0x00000000)  returns 0x00 (0000ms, 0361ms total)
T32A0 000:423 JLINK_WriteReg(R11, 0x00000000)  returns 0x00 (0000ms, 0361ms total)
T32A0 000:423 JLINK_WriteReg(R12, 0x00000000)  returns 0x00 (0000ms, 0361ms total)
T32A0 000:423 JLINK_WriteReg(R13 (SP), 0x20001000)  returns 0x00 (0000ms, 0361ms total)
T32A0 000:423 JLINK_WriteReg(R14, 0x20000001)  returns 0x00 (0000ms, 0361ms total)
T32A0 000:423 JLINK_WriteReg(R15 (PC), 0x20000038)  returns 0x00 (0000ms, 0361ms total)
T32A0 000:423 JLINK_WriteReg(XPSR, 0x01000000)  returns 0x00 (0001ms, 0362ms total)
T32A0 000:424 JLINK_WriteReg(MSP, 0x20001000)  returns 0x00 (0000ms, 0362ms total)
T32A0 000:424 JLINK_WriteReg(PSP, 0x20001000)  returns 0x00 (0000ms, 0362ms total)
T32A0 000:424 JLINK_WriteReg(CFBP, 0x00000000)  returns 0x00 (0000ms, 0362ms total)
T32A0 000:424 JLINK_SetBPEx(Addr = 0x20000000, Type = 0xFFFFFFF2) -- CPU_ReadMem(2 bytes @ 0x20000000)  returns 0x00000001 (0000ms, 0362ms total)
T32A0 000:424 JLINK_Go() -- CPU_WriteMem(2 bytes @ 0x20000000) -- CPU_ReadMem(4 bytes @ 0xE0001000) -- CPU_WriteMem(4 bytes @ 0xE0002008) -- CPU_WriteMem(4 bytes @ 0xE000200C) -- CPU_WriteMem(4 bytes @ 0xE0002010) -- CPU_WriteMem(4 bytes @ 0xE0002014) -- CPU_WriteMem(4 bytes @ 0xE0002018) -- CPU_WriteMem(4 bytes @ 0xE000201C) -- CPU_WriteMem(4 bytes @ 0xE0001004) (0004ms, 0366ms total)
T32A0 000:428 JLINK_IsHalted() -- CPU_ReadMem(2 bytes @ 0x20000000)  returns TRUE (0003ms, 0369ms total)
T32A0 000:431 JLINK_ReadReg(R15 (PC))  returns 0x20000000 (0000ms, 0366ms total)
T32A0 000:431 JLINK_ClrBPEx(BPHandle = 0x00000001)  returns 0x00 (0000ms, 0366ms total)
T32A0 000:431 JLINK_ReadReg(R0)  returns 0x00000000 (0000ms, 0366ms total)
T32A0 000:432 JLINK_WriteReg(R0, 0x08000000)  returns 0x00 (0000ms, 0366ms total)
T32A0 000:432 JLINK_WriteReg(R1, 0x007A1200)  returns 0x00 (0000ms, 0366ms total)
T32A0 000:432 JLINK_WriteReg(R2, 0x00000001)  returns 0x00 (0000ms, 0366ms total)
T32A0 000:432 JLINK_WriteReg(R3, 0x00000000)  returns 0x00 (0000ms, 0366ms total)
T32A0 000:432 JLINK_WriteReg(R4, 0x00000000)  returns 0x00 (0000ms, 0366ms total)
T32A0 000:432 JLINK_WriteReg(R5, 0x00000000)  returns 0x00 (0000ms, 0366ms total)
T32A0 000:432 JLINK_WriteReg(R6, 0x00000000)  returns 0x00 (0000ms, 0366ms total)
T32A0 000:432 JLINK_WriteReg(R7, 0x00000000)  returns 0x00 (0000ms, 0366ms total)
T32A0 000:432 JLINK_WriteReg(R8, 0x00000000)  returns 0x00 (0000ms, 0366ms total)
T32A0 000:432 JLINK_WriteReg(R9, 0x20000160)  returns 0x00 (0000ms, 0366ms total)
T32A0 000:432 JLINK_WriteReg(R10, 0x00000000)  returns 0x00 (0000ms, 0366ms total)
T32A0 000:432 JLINK_WriteReg(R11, 0x00000000)  returns 0x00 (0000ms, 0366ms total)
T32A0 000:432 JLINK_WriteReg(R12, 0x00000000)  returns 0x00 (0000ms, 0366ms total)
T32A0 000:432 JLINK_WriteReg(R13 (SP), 0x20001000)  returns 0x00 (0000ms, 0366ms total)
T32A0 000:432 JLINK_WriteReg(R14, 0x20000001)  returns 0x00 (0000ms, 0366ms total)
T32A0 000:432 JLINK_WriteReg(R15 (PC), 0x2000007C)  returns 0x00 (0000ms, 0366ms total)
T32A0 000:432 JLINK_WriteReg(XPSR, 0x01000000)  returns 0x00 (0000ms, 0366ms total)
T32A0 000:432 JLINK_WriteReg(MSP, 0x20001000)  returns 0x00 (0000ms, 0366ms total)
T32A0 000:432 JLINK_WriteReg(PSP, 0x20001000)  returns 0x00 (0000ms, 0366ms total)
T32A0 000:432 JLINK_WriteReg(CFBP, 0x00000000)  returns 0x00 (0000ms, 0366ms total)
T32A0 000:432 JLINK_SetBPEx(Addr = 0x20000000, Type = 0xFFFFFFF2)  returns 0x00000002 (0000ms, 0366ms total)
T32A0 000:432 JLINK_Go() -- CPU_ReadMem(4 bytes @ 0xE0001000) (0002ms, 0368ms total)
T32A0 000:434 JLINK_IsHalted()  returns FALSE (0000ms, 0368ms total)
T32A0 000:477 JLINK_IsHalted() -- CPU_ReadMem(2 bytes @ 0x20000000)  returns TRUE (0002ms, 0370ms total)
T32A0 000:479 JLINK_ReadReg(R15 (PC))  returns 0x20000000 (0000ms, 0368ms total)
T32A0 000:479 JLINK_ClrBPEx(BPHandle = 0x00000002)  returns 0x00 (0000ms, 0368ms total)
T32A0 000:479 JLINK_ReadReg(R0)  returns 0x00000000 (0000ms, 0368ms total)
T32A0 000:532 JLINK_WriteReg(R0, 0x00000001)  returns 0x00 (0000ms, 0368ms total)
T32A0 000:532 JLINK_WriteReg(R1, 0x007A1200)  returns 0x00 (0000ms, 0368ms total)
T32A0 000:532 JLINK_WriteReg(R2, 0x00000001)  returns 0x00 (0000ms, 0368ms total)
T32A0 000:532 JLINK_WriteReg(R3, 0x00000000)  returns 0x00 (0000ms, 0368ms total)
T32A0 000:532 JLINK_WriteReg(R4, 0x00000000)  returns 0x00 (0000ms, 0368ms total)
T32A0 000:532 JLINK_WriteReg(R5, 0x00000000)  returns 0x00 (0000ms, 0368ms total)
T32A0 000:532 JLINK_WriteReg(R6, 0x00000000)  returns 0x00 (0000ms, 0368ms total)
T32A0 000:532 JLINK_WriteReg(R7, 0x00000000)  returns 0x00 (0000ms, 0368ms total)
T32A0 000:532 JLINK_WriteReg(R8, 0x00000000)  returns 0x00 (0000ms, 0368ms total)
T32A0 000:532 JLINK_WriteReg(R9, 0x20000160)  returns 0x00 (0000ms, 0368ms total)
T32A0 000:532 JLINK_WriteReg(R10, 0x00000000)  returns 0x00 (0000ms, 0368ms total)
T32A0 000:532 JLINK_WriteReg(R11, 0x00000000)  returns 0x00 (0000ms, 0368ms total)
T32A0 000:532 JLINK_WriteReg(R12, 0x00000000)  returns 0x00 (0000ms, 0368ms total)
T32A0 000:532 JLINK_WriteReg(R13 (SP), 0x20001000)  returns 0x00 (0000ms, 0368ms total)
T32A0 000:532 JLINK_WriteReg(R14, 0x20000001)  returns 0x00 (0000ms, 0368ms total)
T32A0 000:532 JLINK_WriteReg(R15 (PC), 0x2000006A)  returns 0x00 (0000ms, 0368ms total)
T32A0 000:532 JLINK_WriteReg(XPSR, 0x01000000)  returns 0x00 (0000ms, 0368ms total)
T32A0 000:532 JLINK_WriteReg(MSP, 0x20001000)  returns 0x00 (0000ms, 0368ms total)
T32A0 000:532 JLINK_WriteReg(PSP, 0x20001000)  returns 0x00 (0000ms, 0368ms total)
T32A0 000:532 JLINK_WriteReg(CFBP, 0x00000000)  returns 0x00 (0000ms, 0368ms total)
T32A0 000:532 JLINK_SetBPEx(Addr = 0x20000000, Type = 0xFFFFFFF2)  returns 0x00000003 (0000ms, 0368ms total)
T32A0 000:532 JLINK_Go() -- CPU_ReadMem(4 bytes @ 0xE0001000) (0002ms, 0370ms total)
T32A0 000:534 JLINK_IsHalted() -- CPU_ReadMem(2 bytes @ 0x20000000)  returns TRUE (0004ms, 0374ms total)
T32A0 000:538 JLINK_ReadReg(R15 (PC))  returns 0x20000000 (0000ms, 0370ms total)
T32A0 000:538 JLINK_ClrBPEx(BPHandle = 0x00000003)  returns 0x00 (0000ms, 0370ms total)
T32A0 000:538 JLINK_ReadReg(R0)  returns 0x00000000 (0000ms, 0370ms total)
T32A0 000:544 JLINK_WriteMem(0x20000000, 0x0164 Bytes, ...) - Data: 00 BE 0A E0 0D 78 2D 06 68 40 08 24 40 00 00 D3 ... -- CPU_WriteMem(356 bytes @ 0x20000000)  returns 0x164 (0002ms, 0372ms total)
T32A0 000:546 JLINK_WriteReg(R0, 0x08000000)  returns 0x00 (0000ms, 0372ms total)
T32A0 000:546 JLINK_WriteReg(R1, 0x007A1200)  returns 0x00 (0000ms, 0372ms total)
T32A0 000:546 JLINK_WriteReg(R2, 0x00000002)  returns 0x00 (0000ms, 0372ms total)
T32A0 000:546 JLINK_WriteReg(R3, 0x00000000)  returns 0x00 (0000ms, 0372ms total)
T32A0 000:546 JLINK_WriteReg(R4, 0x00000000)  returns 0x00 (0000ms, 0372ms total)
T32A0 000:546 JLINK_WriteReg(R5, 0x00000000)  returns 0x00 (0000ms, 0372ms total)
T32A0 000:546 JLINK_WriteReg(R6, 0x00000000)  returns 0x00 (0000ms, 0372ms total)
T32A0 000:546 JLINK_WriteReg(R7, 0x00000000)  returns 0x00 (0000ms, 0372ms total)
T32A0 000:546 JLINK_WriteReg(R8, 0x00000000)  returns 0x00 (0000ms, 0372ms total)
T32A0 000:546 JLINK_WriteReg(R9, 0x20000160)  returns 0x00 (0000ms, 0372ms total)
T32A0 000:546 JLINK_WriteReg(R10, 0x00000000)  returns 0x00 (0000ms, 0372ms total)
T32A0 000:546 JLINK_WriteReg(R11, 0x00000000)  returns 0x00 (0000ms, 0372ms total)
T32A0 000:546 JLINK_WriteReg(R12, 0x00000000)  returns 0x00 (0000ms, 0372ms total)
T32A0 000:546 JLINK_WriteReg(R13 (SP), 0x20001000)  returns 0x00 (0000ms, 0372ms total)
T32A0 000:546 JLINK_WriteReg(R14, 0x20000001)  returns 0x00 (0000ms, 0372ms total)
T32A0 000:546 JLINK_WriteReg(R15 (PC), 0x20000038)  returns 0x00 (0000ms, 0372ms total)
T32A0 000:546 JLINK_WriteReg(XPSR, 0x01000000)  returns 0x00 (0000ms, 0372ms total)
T32A0 000:546 JLINK_WriteReg(MSP, 0x20001000)  returns 0x00 (0000ms, 0372ms total)
T32A0 000:546 JLINK_WriteReg(PSP, 0x20001000)  returns 0x00 (0000ms, 0372ms total)
T32A0 000:546 JLINK_WriteReg(CFBP, 0x00000000)  returns 0x00 (0000ms, 0372ms total)
T32A0 000:546 JLINK_SetBPEx(Addr = 0x20000000, Type = 0xFFFFFFF2) -- CPU_ReadMem(2 bytes @ 0x20000000)  returns 0x00000004 (0001ms, 0373ms total)
T32A0 000:547 JLINK_Go() -- CPU_WriteMem(2 bytes @ 0x20000000) -- CPU_ReadMem(4 bytes @ 0xE0001000) (0003ms, 0376ms total)
T32A0 000:550 JLINK_IsHalted() -- CPU_ReadMem(2 bytes @ 0x20000000)  returns TRUE (0002ms, 0378ms total)
T32A0 000:552 JLINK_ReadReg(R15 (PC))  returns 0x20000000 (0000ms, 0376ms total)
T32A0 000:552 JLINK_ClrBPEx(BPHandle = 0x00000004)  returns 0x00 (0000ms, 0376ms total)
T32A0 000:552 JLINK_ReadReg(R0)  returns 0x00000000 (0000ms, 0376ms total)
T32A0 000:553 JLINK_WriteMem(0x20000164, 0x029C Bytes, ...) - Data: 40 5B 00 20 11 21 00 08 9D 02 00 08 9F 02 00 08 ... -- CPU_WriteMem(668 bytes @ 0x20000164)  returns 0x29C (0004ms, 0380ms total)
T32A0 000:557 JLINK_WriteMem(0x20000400, 0x0164 Bytes, ...) - Data: 70 47 FE E7 FE E7 FE E7 FE E7 70 47 0C B5 00 22 ... -- CPU_WriteMem(356 bytes @ 0x20000400)  returns 0x164 (0002ms, 0382ms total)
T32A0 000:559 JLINK_WriteReg(R0, 0x08000000)  returns 0x00 (0000ms, 0382ms total)
T32A0 000:559 JLINK_WriteReg(R1, 0x00000400)  returns 0x00 (0000ms, 0382ms total)
T32A0 000:559 JLINK_WriteReg(R2, 0x20000164)  returns 0x00 (0000ms, 0382ms total)
T32A0 000:559 JLINK_WriteReg(R3, 0x00000000)  returns 0x00 (0000ms, 0382ms total)
T32A0 000:559 JLINK_WriteReg(R4, 0x00000000)  returns 0x00 (0000ms, 0382ms total)
T32A0 000:559 JLINK_WriteReg(R5, 0x00000000)  returns 0x00 (0000ms, 0382ms total)
T32A0 000:559 JLINK_WriteReg(R6, 0x00000000)  returns 0x00 (0000ms, 0382ms total)
T32A0 000:559 JLINK_WriteReg(R7, 0x00000000)  returns 0x00 (0000ms, 0382ms total)
T32A0 000:559 JLINK_WriteReg(R8, 0x00000000)  returns 0x00 (0000ms, 0382ms total)
T32A0 000:559 JLINK_WriteReg(R9, 0x20000160)  returns 0x00 (0000ms, 0382ms total)
T32A0 000:559 JLINK_WriteReg(R10, 0x00000000)  returns 0x00 (0000ms, 0382ms total)
T32A0 000:559 JLINK_WriteReg(R11, 0x00000000)  returns 0x00 (0000ms, 0382ms total)
T32A0 000:559 JLINK_WriteReg(R12, 0x00000000)  returns 0x00 (0000ms, 0382ms total)
T32A0 000:559 JLINK_WriteReg(R13 (SP), 0x20001000)  returns 0x00 (0000ms, 0382ms total)
T32A0 000:559 JLINK_WriteReg(R14, 0x20000001)  returns 0x00 (0001ms, 0383ms total)
T32A0 000:560 JLINK_WriteReg(R15 (PC), 0x200000F4)  returns 0x00 (0000ms, 0383ms total)
T32A0 000:560 JLINK_WriteReg(XPSR, 0x01000000)  returns 0x00 (0000ms, 0383ms total)
T32A0 000:560 JLINK_WriteReg(MSP, 0x20001000)  returns 0x00 (0000ms, 0383ms total)
T32A0 000:560 JLINK_WriteReg(PSP, 0x20001000)  returns 0x00 (0000ms, 0383ms total)
T32A0 000:560 JLINK_WriteReg(CFBP, 0x00000000)  returns 0x00 (0000ms, 0383ms total)
T32A0 000:560 JLINK_SetBPEx(Addr = 0x20000000, Type = 0xFFFFFFF2)  returns 0x00000005 (0000ms, 0383ms total)
T32A0 000:560 JLINK_Go() -- CPU_ReadMem(4 bytes @ 0xE0001000) (0001ms, 0384ms total)
T32A0 000:561 JLINK_IsHalted()  returns FALSE (0001ms, 0385ms total)
T32A0 000:567 JLINK_IsHalted()  returns FALSE (0001ms, 0385ms total)
T32A0 000:570 JLINK_IsHalted()  returns FALSE (0000ms, 0384ms total)
T32A0 000:572 JLINK_IsHalted()  returns FALSE (0000ms, 0384ms total)
T32A0 000:574 JLINK_IsHalted()  returns FALSE (0000ms, 0384ms total)
T32A0 000:576 JLINK_IsHalted()  returns FALSE (0000ms, 0384ms total)
T32A0 000:578 JLINK_IsHalted()  returns FALSE (0000ms, 0384ms total)
T32A0 000:580 JLINK_IsHalted()  returns FALSE (0000ms, 0384ms total)
T32A0 000:582 JLINK_IsHalted()  returns FALSE (0000ms, 0384ms total)
T32A0 000:584 JLINK_IsHalted()  returns FALSE (0000ms, 0384ms total)
T32A0 000:586 JLINK_IsHalted()  returns FALSE (0000ms, 0384ms total)
T32A0 000:588 JLINK_IsHalted()  returns FALSE (0000ms, 0384ms total)
T32A0 000:590 JLINK_IsHalted()  returns FALSE (0000ms, 0384ms total)
T32A0 000:592 JLINK_IsHalted() -- CPU_ReadMem(2 bytes @ 0x20000000)  returns TRUE (0003ms, 0387ms total)
T32A0 000:595 JLINK_ReadReg(R15 (PC))  returns 0x20000000 (0000ms, 0384ms total)
T32A0 000:595 JLINK_ClrBPEx(BPHandle = 0x00000005)  returns 0x00 (0000ms, 0384ms total)
T32A0 000:595 JLINK_ReadReg(R0)  returns 0x00000000 (0000ms, 0384ms total)
T32A0 000:595 JLINK_WriteMem(0x20000164, 0x029C Bytes, ...) - Data: 8A B0 00 24 20 21 02 A8 06 F0 B0 F8 4F F6 FF 77 ... -- CPU_WriteMem(668 bytes @ 0x20000164)  returns 0x29C (0004ms, 0388ms total)
T32A0 000:599 JLINK_WriteMem(0x20000400, 0x0164 Bytes, ...) - Data: 4F F0 33 31 19 60 21 60 4F F6 FF 71 29 60 F0 BD ... -- CPU_WriteMem(356 bytes @ 0x20000400)  returns 0x164 (0002ms, 0390ms total)
T32A0 000:601 JLINK_WriteReg(R0, 0x08000400)  returns 0x00 (0000ms, 0390ms total)
T32A0 000:601 JLINK_WriteReg(R1, 0x00000400)  returns 0x00 (0000ms, 0390ms total)
T32A0 000:601 JLINK_WriteReg(R2, 0x20000164)  returns 0x00 (0000ms, 0390ms total)
T32A0 000:601 JLINK_WriteReg(R3, 0x00000000)  returns 0x00 (0000ms, 0390ms total)
T32A0 000:601 JLINK_WriteReg(R4, 0x00000000)  returns 0x00 (0000ms, 0390ms total)
T32A0 000:601 JLINK_WriteReg(R5, 0x00000000)  returns 0x00 (0000ms, 0390ms total)
T32A0 000:601 JLINK_WriteReg(R6, 0x00000000)  returns 0x00 (0000ms, 0390ms total)
T32A0 000:601 JLINK_WriteReg(R7, 0x00000000)  returns 0x00 (0000ms, 0390ms total)
T32A0 000:601 JLINK_WriteReg(R8, 0x00000000)  returns 0x00 (0000ms, 0390ms total)
T32A0 000:601 JLINK_WriteReg(R9, 0x20000160)  returns 0x00 (0000ms, 0390ms total)
T32A0 000:601 JLINK_WriteReg(R10, 0x00000000)  returns 0x00 (0000ms, 0390ms total)
T32A0 000:601 JLINK_WriteReg(R11, 0x00000000)  returns 0x00 (0000ms, 0390ms total)
T32A0 000:601 JLINK_WriteReg(R12, 0x00000000)  returns 0x00 (0000ms, 0390ms total)
T32A0 000:601 JLINK_WriteReg(R13 (SP), 0x20001000)  returns 0x00 (0000ms, 0390ms total)
T32A0 000:601 JLINK_WriteReg(R14, 0x20000001)  returns 0x00 (0000ms, 0390ms total)
T32A0 000:601 JLINK_WriteReg(R15 (PC), 0x200000F4)  returns 0x00 (0000ms, 0390ms total)
T32A0 000:601 JLINK_WriteReg(XPSR, 0x01000000)  returns 0x00 (0000ms, 0390ms total)
T32A0 000:602 JLINK_WriteReg(MSP, 0x20001000)  returns 0x00 (0000ms, 0390ms total)
T32A0 000:602 JLINK_WriteReg(PSP, 0x20001000)  returns 0x00 (0000ms, 0390ms total)
T32A0 000:602 JLINK_WriteReg(CFBP, 0x00000000)  returns 0x00 (0000ms, 0390ms total)
T32A0 000:602 JLINK_SetBPEx(Addr = 0x20000000, Type = 0xFFFFFFF2)  returns 0x00000006 (0000ms, 0390ms total)
T32A0 000:602 JLINK_Go() -- CPU_ReadMem(4 bytes @ 0xE0001000) (0001ms, 0391ms total)
T32A0 000:603 JLINK_IsHalted()  returns FALSE (0001ms, 0392ms total)
T32A0 000:606 JLINK_IsHalted()  returns FALSE (0000ms, 0391ms total)
T32A0 000:608 JLINK_IsHalted()  returns FALSE (0000ms, 0391ms total)
T32A0 000:611 JLINK_IsHalted()  returns FALSE (0001ms, 0392ms total)
T32A0 000:614 JLINK_IsHalted()  returns FALSE (0000ms, 0391ms total)
T32A0 000:616 JLINK_IsHalted()  returns FALSE (0001ms, 0392ms total)
T32A0 000:618 JLINK_IsHalted()  returns FALSE (0000ms, 0391ms total)
T32A0 000:620 JLINK_IsHalted()  returns FALSE (0000ms, 0391ms total)
T32A0 000:622 JLINK_IsHalted()  returns FALSE (0000ms, 0391ms total)
T32A0 000:624 JLINK_IsHalted()  returns FALSE (0000ms, 0391ms total)
T32A0 000:626 JLINK_IsHalted()  returns FALSE (0000ms, 0391ms total)
T32A0 000:629 JLINK_IsHalted()  returns FALSE (0000ms, 0391ms total)
T32A0 000:631 JLINK_IsHalted()  returns FALSE (0000ms, 0391ms total)
T32A0 000:633 JLINK_IsHalted()  returns FALSE (0001ms, 0392ms total)
T32A0 000:636 JLINK_IsHalted() -- CPU_ReadMem(2 bytes @ 0x20000000)  returns TRUE (0002ms, 0393ms total)
T32A0 000:638 JLINK_ReadReg(R15 (PC))  returns 0x20000000 (0000ms, 0391ms total)
T32A0 000:638 JLINK_ClrBPEx(BPHandle = 0x00000006)  returns 0x00 (0000ms, 0391ms total)
T32A0 000:638 JLINK_ReadReg(R0)  returns 0x00000000 (0000ms, 0391ms total)
T32A0 000:640 JLINK_WriteMem(0x20000164, 0x029C Bytes, ...) - Data: 10 C0 78 61 D2 B2 1A 60 79 61 39 61 38 61 45 46 ... -- CPU_WriteMem(668 bytes @ 0x20000164)  returns 0x29C (0004ms, 0395ms total)
T32A0 000:644 JLINK_WriteMem(0x20000400, 0x0164 Bytes, ...) - Data: 61 80 4F F0 00 0C 4F F0 80 0A 4F F4 80 77 FE 4D ... -- CPU_WriteMem(356 bytes @ 0x20000400)  returns 0x164 (0002ms, 0397ms total)
T32A0 000:646 JLINK_WriteReg(R0, 0x08000800)  returns 0x00 (0000ms, 0397ms total)
T32A0 000:646 JLINK_WriteReg(R1, 0x00000400)  returns 0x00 (0000ms, 0397ms total)
T32A0 000:646 JLINK_WriteReg(R2, 0x20000164)  returns 0x00 (0000ms, 0397ms total)
T32A0 000:646 JLINK_WriteReg(R3, 0x00000000)  returns 0x00 (0000ms, 0397ms total)
T32A0 000:646 JLINK_WriteReg(R4, 0x00000000)  returns 0x00 (0000ms, 0397ms total)
T32A0 000:646 JLINK_WriteReg(R5, 0x00000000)  returns 0x00 (0000ms, 0397ms total)
T32A0 000:646 JLINK_WriteReg(R6, 0x00000000)  returns 0x00 (0000ms, 0397ms total)
T32A0 000:646 JLINK_WriteReg(R7, 0x00000000)  returns 0x00 (0000ms, 0397ms total)
T32A0 000:646 JLINK_WriteReg(R8, 0x00000000)  returns 0x00 (0000ms, 0397ms total)
T32A0 000:646 JLINK_WriteReg(R9, 0x20000160)  returns 0x00 (0000ms, 0397ms total)
T32A0 000:646 JLINK_WriteReg(R10, 0x00000000)  returns 0x00 (0000ms, 0397ms total)
T32A0 000:646 JLINK_WriteReg(R11, 0x00000000)  returns 0x00 (0000ms, 0397ms total)
T32A0 000:646 JLINK_WriteReg(R12, 0x00000000)  returns 0x00 (0000ms, 0397ms total)
T32A0 000:646 JLINK_WriteReg(R13 (SP), 0x20001000)  returns 0x00 (0000ms, 0397ms total)
T32A0 000:646 JLINK_WriteReg(R14, 0x20000001)  returns 0x00 (0000ms, 0397ms total)
T32A0 000:646 JLINK_WriteReg(R15 (PC), 0x200000F4)  returns 0x00 (0000ms, 0397ms total)
T32A0 000:646 JLINK_WriteReg(XPSR, 0x01000000)  returns 0x00 (0000ms, 0397ms total)
T32A0 000:646 JLINK_WriteReg(MSP, 0x20001000)  returns 0x00 (0000ms, 0397ms total)
T32A0 000:646 JLINK_WriteReg(PSP, 0x20001000)  returns 0x00 (0000ms, 0397ms total)
T32A0 000:646 JLINK_WriteReg(CFBP, 0x00000000)  returns 0x00 (0000ms, 0397ms total)
T32A0 000:646 JLINK_SetBPEx(Addr = 0x20000000, Type = 0xFFFFFFF2)  returns 0x00000007 (0001ms, 0398ms total)
T32A0 000:647 JLINK_Go() -- CPU_ReadMem(4 bytes @ 0xE0001000) (0001ms, 0399ms total)
T32A0 000:648 JLINK_IsHalted()  returns FALSE (0001ms, 0400ms total)
T32A0 000:651 JLINK_IsHalted()  returns FALSE (0001ms, 0400ms total)
T32A0 000:654 JLINK_IsHalted()  returns FALSE (0000ms, 0399ms total)
T32A0 000:656 JLINK_IsHalted()  returns FALSE (0000ms, 0399ms total)
T32A0 000:658 JLINK_IsHalted()  returns FALSE (0000ms, 0399ms total)
T32A0 000:660 JLINK_IsHalted()  returns FALSE (0000ms, 0399ms total)
T32A0 000:662 JLINK_IsHalted()  returns FALSE (0001ms, 0400ms total)
T32A0 000:665 JLINK_IsHalted()  returns FALSE (0000ms, 0399ms total)
T32A0 000:667 JLINK_IsHalted()  returns FALSE (0000ms, 0399ms total)
T32A0 000:669 JLINK_IsHalted()  returns FALSE (0000ms, 0399ms total)
T32A0 000:671 JLINK_IsHalted()  returns FALSE (0000ms, 0399ms total)
T32A0 000:674 JLINK_IsHalted()  returns FALSE (0000ms, 0399ms total)
T32A0 000:676 JLINK_IsHalted()  returns FALSE (0000ms, 0399ms total)
T32A0 000:678 JLINK_IsHalted()  returns FALSE (0001ms, 0400ms total)
T32A0 000:680 JLINK_IsHalted() -- CPU_ReadMem(2 bytes @ 0x20000000)  returns TRUE (0002ms, 0401ms total)
T32A0 000:682 JLINK_ReadReg(R15 (PC))  returns 0x20000000 (0000ms, 0399ms total)
T32A0 000:682 JLINK_ClrBPEx(BPHandle = 0x00000007)  returns 0x00 (0000ms, 0399ms total)
T32A0 000:682 JLINK_ReadReg(R0)  returns 0x00000000 (0000ms, 0399ms total)
T32A0 000:684 JLINK_WriteMem(0x20000164, 0x029C Bytes, ...) - Data: CC F8 00 00 6C 61 2C 61 2E 61 B8 F8 0C 00 FF F7 ... -- CPU_WriteMem(668 bytes @ 0x20000164)  returns 0x29C (0003ms, 0402ms total)
T32A0 000:687 JLINK_WriteMem(0x20000400, 0x0164 Bytes, ...) - Data: 00 00 66 61 26 61 09 E0 00 10 01 40 0C 0C 01 40 ... -- CPU_WriteMem(356 bytes @ 0x20000400)  returns 0x164 (0003ms, 0405ms total)
T32A0 000:690 JLINK_WriteReg(R0, 0x08000C00)  returns 0x00 (0000ms, 0405ms total)
T32A0 000:690 JLINK_WriteReg(R1, 0x00000400)  returns 0x00 (0000ms, 0405ms total)
T32A0 000:690 JLINK_WriteReg(R2, 0x20000164)  returns 0x00 (0000ms, 0405ms total)
T32A0 000:690 JLINK_WriteReg(R3, 0x00000000)  returns 0x00 (0000ms, 0405ms total)
T32A0 000:690 JLINK_WriteReg(R4, 0x00000000)  returns 0x00 (0000ms, 0405ms total)
T32A0 000:690 JLINK_WriteReg(R5, 0x00000000)  returns 0x00 (0000ms, 0405ms total)
T32A0 000:690 JLINK_WriteReg(R6, 0x00000000)  returns 0x00 (0000ms, 0405ms total)
T32A0 000:690 JLINK_WriteReg(R7, 0x00000000)  returns 0x00 (0000ms, 0405ms total)
T32A0 000:690 JLINK_WriteReg(R8, 0x00000000)  returns 0x00 (0000ms, 0405ms total)
T32A0 000:690 JLINK_WriteReg(R9, 0x20000160)  returns 0x00 (0000ms, 0405ms total)
T32A0 000:690 JLINK_WriteReg(R10, 0x00000000)  returns 0x00 (0000ms, 0405ms total)
T32A0 000:690 JLINK_WriteReg(R11, 0x00000000)  returns 0x00 (0000ms, 0405ms total)
T32A0 000:690 JLINK_WriteReg(R12, 0x00000000)  returns 0x00 (0000ms, 0405ms total)
T32A0 000:690 JLINK_WriteReg(R13 (SP), 0x20001000)  returns 0x00 (0000ms, 0405ms total)
T32A0 000:690 JLINK_WriteReg(R14, 0x20000001)  returns 0x00 (0000ms, 0405ms total)
T32A0 000:690 JLINK_WriteReg(R15 (PC), 0x200000F4)  returns 0x00 (0000ms, 0405ms total)
T32A0 000:690 JLINK_WriteReg(XPSR, 0x01000000)  returns 0x00 (0000ms, 0405ms total)
T32A0 000:690 JLINK_WriteReg(MSP, 0x20001000)  returns 0x00 (0000ms, 0405ms total)
T32A0 000:690 JLINK_WriteReg(PSP, 0x20001000)  returns 0x00 (0000ms, 0405ms total)
T32A0 000:690 JLINK_WriteReg(CFBP, 0x00000000)  returns 0x00 (0000ms, 0405ms total)
T32A0 000:690 JLINK_SetBPEx(Addr = 0x20000000, Type = 0xFFFFFFF2)  returns 0x00000008 (0000ms, 0405ms total)
T32A0 000:690 JLINK_Go() -- CPU_ReadMem(4 bytes @ 0xE0001000) (0002ms, 0407ms total)
T32A0 000:692 JLINK_IsHalted()  returns FALSE (0001ms, 0408ms total)
T32A0 000:695 JLINK_IsHalted()  returns FALSE (0000ms, 0407ms total)
T32A0 000:697 JLINK_IsHalted()  returns FALSE (0000ms, 0407ms total)
T32A0 000:699 JLINK_IsHalted()  returns FALSE (0001ms, 0408ms total)
T32A0 000:702 JLINK_IsHalted()  returns FALSE (0000ms, 0407ms total)
T32A0 000:704 JLINK_IsHalted()  returns FALSE (0000ms, 0407ms total)
T32A0 000:706 JLINK_IsHalted()  returns FALSE (0001ms, 0408ms total)
T32A0 000:709 JLINK_IsHalted()  returns FALSE (0000ms, 0407ms total)
T32A0 000:711 JLINK_IsHalted()  returns FALSE (0000ms, 0407ms total)
T32A0 000:713 JLINK_IsHalted()  returns FALSE (0000ms, 0407ms total)
T32A0 000:715 JLINK_IsHalted()  returns FALSE (0000ms, 0407ms total)
T32A0 000:717 JLINK_IsHalted()  returns FALSE (0000ms, 0407ms total)
T32A0 000:719 JLINK_IsHalted()  returns FALSE (0000ms, 0407ms total)
T32A0 000:721 JLINK_IsHalted()  returns FALSE (0000ms, 0407ms total)
T32A0 000:723 JLINK_IsHalted() -- CPU_ReadMem(2 bytes @ 0x20000000)  returns TRUE (0003ms, 0410ms total)
T32A0 000:726 JLINK_ReadReg(R15 (PC))  returns 0x20000000 (0000ms, 0407ms total)
T32A0 000:726 JLINK_ClrBPEx(BPHandle = 0x00000008)  returns 0x00 (0000ms, 0407ms total)
T32A0 000:726 JLINK_ReadReg(R0)  returns 0x00000000 (0000ms, 0407ms total)
T32A0 000:726 JLINK_WriteMem(0x20000164, 0x029C Bytes, ...) - Data: 13 FB 2F 61 6E 61 DF F8 FC C2 4F EA 19 20 CC F8 ... -- CPU_WriteMem(668 bytes @ 0x20000164)  returns 0x29C (0004ms, 0411ms total)
T32A0 000:730 JLINK_WriteMem(0x20000400, 0x0164 Bytes, ...) - Data: AD F8 00 50 69 46 20 46 01 F0 03 F8 29 46 20 46 ... -- CPU_WriteMem(356 bytes @ 0x20000400)  returns 0x164 (0003ms, 0414ms total)
T32A0 000:733 JLINK_WriteReg(R0, 0x08001000)  returns 0x00 (0000ms, 0414ms total)
T32A0 000:733 JLINK_WriteReg(R1, 0x00000400)  returns 0x00 (0000ms, 0414ms total)
T32A0 000:733 JLINK_WriteReg(R2, 0x20000164)  returns 0x00 (0000ms, 0414ms total)
T32A0 000:733 JLINK_WriteReg(R3, 0x00000000)  returns 0x00 (0000ms, 0414ms total)
T32A0 000:733 JLINK_WriteReg(R4, 0x00000000)  returns 0x00 (0000ms, 0414ms total)
T32A0 000:733 JLINK_WriteReg(R5, 0x00000000)  returns 0x00 (0000ms, 0414ms total)
T32A0 000:733 JLINK_WriteReg(R6, 0x00000000)  returns 0x00 (0000ms, 0414ms total)
T32A0 000:733 JLINK_WriteReg(R7, 0x00000000)  returns 0x00 (0000ms, 0414ms total)
T32A0 000:733 JLINK_WriteReg(R8, 0x00000000)  returns 0x00 (0000ms, 0414ms total)
T32A0 000:733 JLINK_WriteReg(R9, 0x20000160)  returns 0x00 (0000ms, 0414ms total)
T32A0 000:733 JLINK_WriteReg(R10, 0x00000000)  returns 0x00 (0000ms, 0414ms total)
T32A0 000:733 JLINK_WriteReg(R11, 0x00000000)  returns 0x00 (0000ms, 0414ms total)
T32A0 000:733 JLINK_WriteReg(R12, 0x00000000)  returns 0x00 (0000ms, 0414ms total)
T32A0 000:733 JLINK_WriteReg(R13 (SP), 0x20001000)  returns 0x00 (0000ms, 0414ms total)
T32A0 000:733 JLINK_WriteReg(R14, 0x20000001)  returns 0x00 (0000ms, 0414ms total)
T32A0 000:733 JLINK_WriteReg(R15 (PC), 0x200000F4)  returns 0x00 (0000ms, 0414ms total)
T32A0 000:733 JLINK_WriteReg(XPSR, 0x01000000)  returns 0x00 (0000ms, 0414ms total)
T32A0 000:733 JLINK_WriteReg(MSP, 0x20001000)  returns 0x00 (0000ms, 0414ms total)
T32A0 000:733 JLINK_WriteReg(PSP, 0x20001000)  returns 0x00 (0000ms, 0414ms total)
T32A0 000:733 JLINK_WriteReg(CFBP, 0x00000000)  returns 0x00 (0000ms, 0414ms total)
T32A0 000:733 JLINK_SetBPEx(Addr = 0x20000000, Type = 0xFFFFFFF2)  returns 0x00000009 (0000ms, 0414ms total)
T32A0 000:733 JLINK_Go() -- CPU_ReadMem(4 bytes @ 0xE0001000) (0002ms, 0416ms total)
T32A0 000:735 JLINK_IsHalted()  returns FALSE (0000ms, 0416ms total)
T32A0 000:738 JLINK_IsHalted()  returns FALSE (0000ms, 0416ms total)
T32A0 000:740 JLINK_IsHalted()  returns FALSE (0000ms, 0416ms total)
T32A0 000:742 JLINK_IsHalted()  returns FALSE (0000ms, 0416ms total)
T32A0 000:744 JLINK_IsHalted()  returns FALSE (0000ms, 0416ms total)
T32A0 000:746 JLINK_IsHalted()  returns FALSE (0000ms, 0416ms total)
T32A0 000:748 JLINK_IsHalted()  returns FALSE (0000ms, 0416ms total)
T32A0 000:751 JLINK_IsHalted()  returns FALSE (0001ms, 0417ms total)
T32A0 000:754 JLINK_IsHalted()  returns FALSE (0000ms, 0416ms total)
T32A0 000:756 JLINK_IsHalted()  returns FALSE (0000ms, 0416ms total)
T32A0 000:758 JLINK_IsHalted()  returns FALSE (0000ms, 0416ms total)
T32A0 000:760 JLINK_IsHalted()  returns FALSE (0000ms, 0416ms total)
T32A0 000:762 JLINK_IsHalted()  returns FALSE (0000ms, 0416ms total)
T32A0 000:764 JLINK_IsHalted()  returns FALSE (0000ms, 0416ms total)
T32A0 000:766 JLINK_IsHalted() -- CPU_ReadMem(2 bytes @ 0x20000000)  returns TRUE (0003ms, 0419ms total)
T32A0 000:769 JLINK_ReadReg(R15 (PC))  returns 0x20000000 (0000ms, 0416ms total)
T32A0 000:769 JLINK_ClrBPEx(BPHandle = 0x00000009)  returns 0x00 (0000ms, 0416ms total)
T32A0 000:769 JLINK_ReadReg(R0)  returns 0x00000000 (0000ms, 0416ms total)
T32A0 000:769 JLINK_WriteMem(0x20000164, 0x029C Bytes, ...) - Data: FF F7 12 F9 00 20 FF F7 1C F9 1A 20 FF F7 19 F9 ... -- CPU_WriteMem(668 bytes @ 0x20000164)  returns 0x29C (0004ms, 0420ms total)
T32A0 000:773 JLINK_WriteMem(0x20000400, 0x0164 Bytes, ...) - Data: 02 DD 01 99 36 1B 8A 44 A5 42 02 DD 00 99 2D 1B ... -- CPU_WriteMem(356 bytes @ 0x20000400)  returns 0x164 (0003ms, 0423ms total)
T32A0 000:776 JLINK_WriteReg(R0, 0x08001400)  returns 0x00 (0000ms, 0423ms total)
T32A0 000:776 JLINK_WriteReg(R1, 0x00000400)  returns 0x00 (0000ms, 0423ms total)
T32A0 000:776 JLINK_WriteReg(R2, 0x20000164)  returns 0x00 (0000ms, 0423ms total)
T32A0 000:776 JLINK_WriteReg(R3, 0x00000000)  returns 0x00 (0000ms, 0423ms total)
T32A0 000:776 JLINK_WriteReg(R4, 0x00000000)  returns 0x00 (0000ms, 0423ms total)
T32A0 000:776 JLINK_WriteReg(R5, 0x00000000)  returns 0x00 (0000ms, 0423ms total)
T32A0 000:776 JLINK_WriteReg(R6, 0x00000000)  returns 0x00 (0000ms, 0423ms total)
T32A0 000:776 JLINK_WriteReg(R7, 0x00000000)  returns 0x00 (0000ms, 0423ms total)
T32A0 000:776 JLINK_WriteReg(R8, 0x00000000)  returns 0x00 (0000ms, 0423ms total)
T32A0 000:776 JLINK_WriteReg(R9, 0x20000160)  returns 0x00 (0000ms, 0423ms total)
T32A0 000:776 JLINK_WriteReg(R10, 0x00000000)  returns 0x00 (0000ms, 0423ms total)
T32A0 000:776 JLINK_WriteReg(R11, 0x00000000)  returns 0x00 (0000ms, 0423ms total)
T32A0 000:776 JLINK_WriteReg(R12, 0x00000000)  returns 0x00 (0000ms, 0423ms total)
T32A0 000:776 JLINK_WriteReg(R13 (SP), 0x20001000)  returns 0x00 (0000ms, 0423ms total)
T32A0 000:776 JLINK_WriteReg(R14, 0x20000001)  returns 0x00 (0000ms, 0423ms total)
T32A0 000:776 JLINK_WriteReg(R15 (PC), 0x200000F4)  returns 0x00 (0000ms, 0423ms total)
T32A0 000:776 JLINK_WriteReg(XPSR, 0x01000000)  returns 0x00 (0000ms, 0423ms total)
T32A0 000:776 JLINK_WriteReg(MSP, 0x20001000)  returns 0x00 (0000ms, 0423ms total)
T32A0 000:776 JLINK_WriteReg(PSP, 0x20001000)  returns 0x00 (0000ms, 0423ms total)
T32A0 000:776 JLINK_WriteReg(CFBP, 0x00000000)  returns 0x00 (0000ms, 0423ms total)
T32A0 000:776 JLINK_SetBPEx(Addr = 0x20000000, Type = 0xFFFFFFF2)  returns 0x0000000A (0000ms, 0423ms total)
T32A0 000:776 JLINK_Go() -- CPU_ReadMem(4 bytes @ 0xE0001000) (0003ms, 0426ms total)
T32A0 000:779 JLINK_IsHalted()  returns FALSE (0000ms, 0426ms total)
T32A0 000:784 JLINK_IsHalted()  returns FALSE (0000ms, 0426ms total)
T32A0 000:786 JLINK_IsHalted()  returns FALSE (0000ms, 0426ms total)
T32A0 000:788 JLINK_IsHalted()  returns FALSE (0000ms, 0426ms total)
T32A0 000:790 JLINK_IsHalted()  returns FALSE (0000ms, 0426ms total)
T32A0 000:792 JLINK_IsHalted()  returns FALSE (0000ms, 0426ms total)
T32A0 000:794 JLINK_IsHalted()  returns FALSE (0000ms, 0426ms total)
T32A0 000:796 JLINK_IsHalted()  returns FALSE (0000ms, 0426ms total)
T32A0 000:798 JLINK_IsHalted()  returns FALSE (0001ms, 0427ms total)
T32A0 000:800 JLINK_IsHalted()  returns FALSE (0000ms, 0426ms total)
T32A0 000:801 JLINK_IsHalted()  returns FALSE (0000ms, 0426ms total)
T32A0 000:803 JLINK_IsHalted()  returns FALSE (0000ms, 0426ms total)
T32A0 000:805 JLINK_IsHalted()  returns FALSE (0000ms, 0426ms total)
T32A0 000:807 JLINK_IsHalted()  returns FALSE (0000ms, 0426ms total)
T32A0 000:809 JLINK_IsHalted() -- CPU_ReadMem(2 bytes @ 0x20000000)  returns TRUE (0003ms, 0429ms total)
T32A0 000:812 JLINK_ReadReg(R15 (PC))  returns 0x20000000 (0000ms, 0426ms total)
T32A0 000:812 JLINK_ClrBPEx(BPHandle = 0x0000000A)  returns 0x00 (0000ms, 0426ms total)
T32A0 000:812 JLINK_ReadReg(R0)  returns 0x00000000 (0000ms, 0426ms total)
T32A0 000:812 JLINK_WriteMem(0x20000164, 0x029C Bytes, ...) - Data: 09 10 EF E7 0A 98 28 B9 50 48 42 88 21 46 50 46 ... -- CPU_WriteMem(668 bytes @ 0x20000164)  returns 0x29C (0004ms, 0430ms total)
T32A0 000:816 JLINK_WriteMem(0x20000400, 0x0164 Bytes, ...) - Data: 0E 40 01 20 8D F8 0F 00 03 A8 00 F0 58 FB 01 21 ... -- CPU_WriteMem(356 bytes @ 0x20000400)  returns 0x164 (0002ms, 0432ms total)
T32A0 000:818 JLINK_WriteReg(R0, 0x08001800)  returns 0x00 (0000ms, 0432ms total)
T32A0 000:818 JLINK_WriteReg(R1, 0x00000400)  returns 0x00 (0001ms, 0433ms total)
T32A0 000:819 JLINK_WriteReg(R2, 0x20000164)  returns 0x00 (0000ms, 0433ms total)
T32A0 000:819 JLINK_WriteReg(R3, 0x00000000)  returns 0x00 (0000ms, 0433ms total)
T32A0 000:819 JLINK_WriteReg(R4, 0x00000000)  returns 0x00 (0000ms, 0433ms total)
T32A0 000:819 JLINK_WriteReg(R5, 0x00000000)  returns 0x00 (0000ms, 0433ms total)
T32A0 000:819 JLINK_WriteReg(R6, 0x00000000)  returns 0x00 (0000ms, 0433ms total)
T32A0 000:819 JLINK_WriteReg(R7, 0x00000000)  returns 0x00 (0000ms, 0433ms total)
T32A0 000:819 JLINK_WriteReg(R8, 0x00000000)  returns 0x00 (0000ms, 0433ms total)
T32A0 000:819 JLINK_WriteReg(R9, 0x20000160)  returns 0x00 (0000ms, 0433ms total)
T32A0 000:819 JLINK_WriteReg(R10, 0x00000000)  returns 0x00 (0000ms, 0433ms total)
T32A0 000:819 JLINK_WriteReg(R11, 0x00000000)  returns 0x00 (0000ms, 0433ms total)
T32A0 000:819 JLINK_WriteReg(R12, 0x00000000)  returns 0x00 (0000ms, 0433ms total)
T32A0 000:819 JLINK_WriteReg(R13 (SP), 0x20001000)  returns 0x00 (0000ms, 0433ms total)
T32A0 000:819 JLINK_WriteReg(R14, 0x20000001)  returns 0x00 (0000ms, 0433ms total)
T32A0 000:819 JLINK_WriteReg(R15 (PC), 0x200000F4)  returns 0x00 (0000ms, 0433ms total)
T32A0 000:819 JLINK_WriteReg(XPSR, 0x01000000)  returns 0x00 (0000ms, 0433ms total)
T32A0 000:819 JLINK_WriteReg(MSP, 0x20001000)  returns 0x00 (0000ms, 0433ms total)
T32A0 000:819 JLINK_WriteReg(PSP, 0x20001000)  returns 0x00 (0000ms, 0433ms total)
T32A0 000:819 JLINK_WriteReg(CFBP, 0x00000000)  returns 0x00 (0000ms, 0433ms total)
T32A0 000:819 JLINK_SetBPEx(Addr = 0x20000000, Type = 0xFFFFFFF2)  returns 0x0000000B (0000ms, 0433ms total)
T32A0 000:819 JLINK_Go() -- CPU_ReadMem(4 bytes @ 0xE0001000) (0002ms, 0435ms total)
T32A0 000:821 JLINK_IsHalted()  returns FALSE (0000ms, 0435ms total)
T32A0 000:823 JLINK_IsHalted()  returns FALSE (0000ms, 0435ms total)
T32A0 000:825 JLINK_IsHalted()  returns FALSE (0000ms, 0435ms total)
T32A0 000:827 JLINK_IsHalted()  returns FALSE (0000ms, 0435ms total)
T32A0 000:829 JLINK_IsHalted()  returns FALSE (0000ms, 0435ms total)
T32A0 000:831 JLINK_IsHalted()  returns FALSE (0000ms, 0435ms total)
T32A0 000:833 JLINK_IsHalted()  returns FALSE (0000ms, 0435ms total)
T32A0 000:835 JLINK_IsHalted()  returns FALSE (0000ms, 0435ms total)
T32A0 000:838 JLINK_IsHalted()  returns FALSE (0000ms, 0435ms total)
T32A0 000:840 JLINK_IsHalted()  returns FALSE (0000ms, 0435ms total)
T32A0 000:842 JLINK_IsHalted()  returns FALSE (0000ms, 0435ms total)
T32A0 000:844 JLINK_IsHalted()  returns FALSE (0000ms, 0435ms total)
T32A0 000:846 JLINK_IsHalted()  returns FALSE (0000ms, 0435ms total)
T32A0 000:848 JLINK_IsHalted()  returns FALSE (0000ms, 0435ms total)
T32A0 000:850 JLINK_IsHalted()  returns FALSE (0000ms, 0435ms total)
T32A0 000:852 JLINK_IsHalted() -- CPU_ReadMem(2 bytes @ 0x20000000)  returns TRUE (0003ms, 0438ms total)
T32A0 000:855 JLINK_ReadReg(R15 (PC))  returns 0x20000000 (0000ms, 0435ms total)
T32A0 000:855 JLINK_ClrBPEx(BPHandle = 0x0000000B)  returns 0x00 (0000ms, 0435ms total)
T32A0 000:855 JLINK_ReadReg(R0)  returns 0x00000000 (0000ms, 0435ms total)
T32A0 000:855 JLINK_WriteMem(0x20000164, 0x029C Bytes, ...) - Data: 01 D0 13 80 70 BD 40 F4 00 40 0D E0 0D 29 09 D0 ... -- CPU_WriteMem(668 bytes @ 0x20000164)  returns 0x29C (0004ms, 0439ms total)
T32A0 000:859 JLINK_WriteMem(0x20000400, 0x0164 Bytes, ...) - Data: 08 40 AD F8 14 00 AD F8 0A 40 AD F8 12 40 01 A9 ... -- CPU_WriteMem(356 bytes @ 0x20000400)  returns 0x164 (0003ms, 0442ms total)
T32A0 000:862 JLINK_WriteReg(R0, 0x08001C00)  returns 0x00 (0000ms, 0442ms total)
T32A0 000:862 JLINK_WriteReg(R1, 0x00000400)  returns 0x00 (0000ms, 0442ms total)
T32A0 000:862 JLINK_WriteReg(R2, 0x20000164)  returns 0x00 (0000ms, 0442ms total)
T32A0 000:862 JLINK_WriteReg(R3, 0x00000000)  returns 0x00 (0000ms, 0442ms total)
T32A0 000:862 JLINK_WriteReg(R4, 0x00000000)  returns 0x00 (0000ms, 0442ms total)
T32A0 000:862 JLINK_WriteReg(R5, 0x00000000)  returns 0x00 (0000ms, 0442ms total)
T32A0 000:862 JLINK_WriteReg(R6, 0x00000000)  returns 0x00 (0000ms, 0442ms total)
T32A0 000:862 JLINK_WriteReg(R7, 0x00000000)  returns 0x00 (0000ms, 0442ms total)
T32A0 000:862 JLINK_WriteReg(R8, 0x00000000)  returns 0x00 (0000ms, 0442ms total)
T32A0 000:862 JLINK_WriteReg(R9, 0x20000160)  returns 0x00 (0000ms, 0442ms total)
T32A0 000:862 JLINK_WriteReg(R10, 0x00000000)  returns 0x00 (0000ms, 0442ms total)
T32A0 000:862 JLINK_WriteReg(R11, 0x00000000)  returns 0x00 (0000ms, 0442ms total)
T32A0 000:862 JLINK_WriteReg(R12, 0x00000000)  returns 0x00 (0000ms, 0442ms total)
T32A0 000:862 JLINK_WriteReg(R13 (SP), 0x20001000)  returns 0x00 (0000ms, 0442ms total)
T32A0 000:862 JLINK_WriteReg(R14, 0x20000001)  returns 0x00 (0000ms, 0442ms total)
T32A0 000:862 JLINK_WriteReg(R15 (PC), 0x200000F4)  returns 0x00 (0000ms, 0442ms total)
T32A0 000:862 JLINK_WriteReg(XPSR, 0x01000000)  returns 0x00 (0000ms, 0442ms total)
T32A0 000:862 JLINK_WriteReg(MSP, 0x20001000)  returns 0x00 (0000ms, 0442ms total)
T32A0 000:862 JLINK_WriteReg(PSP, 0x20001000)  returns 0x00 (0000ms, 0442ms total)
T32A0 000:862 JLINK_WriteReg(CFBP, 0x00000000)  returns 0x00 (0000ms, 0442ms total)
T32A0 000:862 JLINK_SetBPEx(Addr = 0x20000000, Type = 0xFFFFFFF2)  returns 0x0000000C (0000ms, 0442ms total)
T32A0 000:862 JLINK_Go() -- CPU_ReadMem(4 bytes @ 0xE0001000) (0002ms, 0444ms total)
T32A0 000:864 JLINK_IsHalted()  returns FALSE (0000ms, 0444ms total)
T32A0 000:867 JLINK_IsHalted()  returns FALSE (0000ms, 0444ms total)
T32A0 000:869 JLINK_IsHalted()  returns FALSE (0000ms, 0444ms total)
T32A0 000:871 JLINK_IsHalted()  returns FALSE (0000ms, 0444ms total)
T32A0 000:873 JLINK_IsHalted()  returns FALSE (0000ms, 0444ms total)
T32A0 000:875 JLINK_IsHalted()  returns FALSE (0000ms, 0444ms total)
T32A0 000:877 JLINK_IsHalted()  returns FALSE (0000ms, 0444ms total)
T32A0 000:879 JLINK_IsHalted()  returns FALSE (0000ms, 0444ms total)
T32A0 000:881 JLINK_IsHalted()  returns FALSE (0000ms, 0444ms total)
T32A0 000:883 JLINK_IsHalted()  returns FALSE (0000ms, 0444ms total)
T32A0 000:885 JLINK_IsHalted()  returns FALSE (0000ms, 0444ms total)
T32A0 000:887 JLINK_IsHalted()  returns FALSE (0000ms, 0444ms total)
T32A0 000:889 JLINK_IsHalted()  returns FALSE (0000ms, 0444ms total)
T32A0 000:891 JLINK_IsHalted()  returns FALSE (0000ms, 0444ms total)
T32A0 000:893 JLINK_IsHalted()  returns FALSE (0000ms, 0444ms total)
T32A0 000:895 JLINK_IsHalted() -- CPU_ReadMem(2 bytes @ 0x20000000)  returns TRUE (0002ms, 0446ms total)
T32A0 000:897 JLINK_ReadReg(R15 (PC))  returns 0x20000000 (0000ms, 0444ms total)
T32A0 000:897 JLINK_ClrBPEx(BPHandle = 0x0000000C)  returns 0x00 (0000ms, 0444ms total)
T32A0 000:897 JLINK_ReadReg(R0)  returns 0x00000000 (0001ms, 0445ms total)
T32A0 000:898 JLINK_WriteMem(0x20000164, 0x029C Bytes, ...) - Data: 70 BD A0 06 01 D5 20 20 70 BD FF 20 70 BD 70 B5 ... -- CPU_WriteMem(668 bytes @ 0x20000164)  returns 0x29C (0005ms, 0450ms total)
T32A0 000:903 JLINK_WriteMem(0x20000400, 0x0164 Bytes, ...) - Data: 08 46 00 F0 00 FA 00 21 BD E8 10 40 01 20 00 F0 ... -- CPU_WriteMem(356 bytes @ 0x20000400)  returns 0x164 (0002ms, 0452ms total)
T32A0 000:905 JLINK_WriteReg(R0, 0x08002000)  returns 0x00 (0000ms, 0452ms total)
T32A0 000:905 JLINK_WriteReg(R1, 0x00000400)  returns 0x00 (0000ms, 0452ms total)
T32A0 000:905 JLINK_WriteReg(R2, 0x20000164)  returns 0x00 (0000ms, 0452ms total)
T32A0 000:905 JLINK_WriteReg(R3, 0x00000000)  returns 0x00 (0001ms, 0453ms total)
T32A0 000:906 JLINK_WriteReg(R4, 0x00000000)  returns 0x00 (0000ms, 0453ms total)
T32A0 000:906 JLINK_WriteReg(R5, 0x00000000)  returns 0x00 (0000ms, 0453ms total)
T32A0 000:906 JLINK_WriteReg(R6, 0x00000000)  returns 0x00 (0000ms, 0453ms total)
T32A0 000:906 JLINK_WriteReg(R7, 0x00000000)  returns 0x00 (0000ms, 0453ms total)
T32A0 000:906 JLINK_WriteReg(R8, 0x00000000)  returns 0x00 (0000ms, 0453ms total)
T32A0 000:906 JLINK_WriteReg(R9, 0x20000160)  returns 0x00 (0000ms, 0453ms total)
T32A0 000:906 JLINK_WriteReg(R10, 0x00000000)  returns 0x00 (0000ms, 0453ms total)
T32A0 000:906 JLINK_WriteReg(R11, 0x00000000)  returns 0x00 (0001ms, 0454ms total)
T32A0 000:907 JLINK_WriteReg(R12, 0x00000000)  returns 0x00 (0000ms, 0454ms total)
T32A0 000:907 JLINK_WriteReg(R13 (SP), 0x20001000)  returns 0x00 (0000ms, 0454ms total)
T32A0 000:907 JLINK_WriteReg(R14, 0x20000001)  returns 0x00 (0000ms, 0454ms total)
T32A0 000:907 JLINK_WriteReg(R15 (PC), 0x200000F4)  returns 0x00 (0000ms, 0454ms total)
T32A0 000:907 JLINK_WriteReg(XPSR, 0x01000000)  returns 0x00 (0000ms, 0454ms total)
T32A0 000:907 JLINK_WriteReg(MSP, 0x20001000)  returns 0x00 (0000ms, 0454ms total)
T32A0 000:907 JLINK_WriteReg(PSP, 0x20001000)  returns 0x00 (0001ms, 0455ms total)
T32A0 000:908 JLINK_WriteReg(CFBP, 0x00000000)  returns 0x00 (0000ms, 0455ms total)
T32A0 000:908 JLINK_SetBPEx(Addr = 0x20000000, Type = 0xFFFFFFF2)  returns 0x0000000D (0000ms, 0455ms total)
T32A0 000:908 JLINK_Go() -- CPU_ReadMem(4 bytes @ 0xE0001000) (0003ms, 0458ms total)
T32A0 000:911 JLINK_IsHalted()  returns FALSE (0000ms, 0458ms total)
